
T0020 000:058 SEGGER J-Link V6.52b Log File (0000ms, 0047ms total)
T0020 000:058 DLL Compiled: Oct  8 2019 12:29:01 (0000ms, 0047ms total)
T0020 000:058 Logging started @ 2019-10-15 03:37 (0000ms, 0047ms total)
T0020 000:058 JLINK_SetWarnOutHandler(...) (0000ms, 0047ms total)
T0020 000:058 JLINK_OpenEx(...)
Firmware: J-Link ARM-OB STM32 compiled Aug 22 2012 19:52:04
Hardware: V7.00
S/N: 20090928
Feature(s): RDI,FlashDL,FlashBP,JFlash,GDBFull
TELNET listener socket opened on port 19021WEBSRV 
Starting webserver (0032ms, 0079ms total)
T0020 000:058 WEBSRV Webserver running on local port 19080 (0032ms, 0079ms total)
T0020 000:058   returns O.K. (0032ms, 0079ms total)
T0020 000:090 JLINK_SetErrorOutHandler(...) (0000ms, 0079ms total)
T0020 000:090 JLINK_ExecCommand("ProjectFile = "C:\Users\tos\Desktop\新增資料夾 (2)\BLE_HeartBeat\Heartbeat\JLinkSettings.ini"", ...). Ref file found at: C:\Keil_v5\ARM\Segger\JLinkDevices.ref (0024ms, 0103ms total)
T0020 000:090 XML referenced by ref file: C:\Program Files (x86)\SEGGER\JLink\JLinkDevices.xml (0024ms, 0103ms total)
T0020 000:090 C:\Program Files (x86)\SEGGER\JLink\JLinkDevices.xml evaluated successfully. (0026ms, 0105ms total)
T0020 000:090   returns 0x00 (0100ms, 0179ms total)
T0020 000:192 JLINK_ExecCommand("Device = NANO130KE3BN", ...). Device "NANO130KE3BN" selected.  returns 0x00 (0004ms, 0183ms total)
T0020 000:196 JLINK_ExecCommand("DisableConnectionTimeout", ...).   returns 0x01 (0000ms, 0183ms total)
T0020 000:196 JLINK_GetHardwareVersion()  returns 0x11170 (0000ms, 0183ms total)
T0020 000:196 JLINK_GetDLLVersion()  returns 65202 (0000ms, 0183ms total)
T0020 000:196 JLINK_GetFirmwareString(...)
T0020 000:196 (0000ms, 0183ms total)
T0020 000:200 JLINK_GetDLLVersion()  returns 65202 (0000ms, 0183ms total)
T0020 000:200 JLINK_GetCompileDateTime() (0000ms, 0183ms total)
T0020 000:203 JLINK_GetFirmwareString(...)
T0020 000:203 (0000ms, 0184ms total)
T0020 000:205 JLINK_GetHardwareVersion()  returns 0x11170 (0000ms, 0184ms total)
T0020 000:212 JLINK_TIF_Select(JLINKARM_TIF_SWD)  returns 0x00 (0003ms, 0187ms total)
T0020 000:215 JLINK_SetSpeed(5000) (0002ms, 0189ms total)
T0020 000:217 JLINK_GetId()InitTarget()Write protected device detected. This could cause problems during flash download.
Note: Unsecuring will trigger a mass erase of the internal flash.
 (0049ms, 0238ms total)
T0020 000:217 Executing default behavior previously saved in the registry.Device will be unsecured now.Found SW-DP with ID 0x0BB11477Scanning AP map to find all available APsAP[1]: Stopped AP scan as end of AP map has been reachedAP[0]: AHB-AP (IDR: 0x04770021)Iterating through AP map to find AHB-AP to useAP[0]: Core foundAP[0]: AHB-AP ROM base: 0xE00FF000CPUID register: 0x410CC200. Implementer code: 0x41 (ARM)Found Cortex-M0 r0p0, Little endian. -- Max. mem block: 0x00002C18
 -- CPU_ReadMem(4 bytes @ 0xE000EDF0) -- CPU_WriteMem(4 bytes @ 0xE000EDF0) -- CPU_ReadMem(4 bytes @ 0xE0002000)FPUnit: 4 code (BP) slots and 0 literal slots -- CPU_ReadMem(4 bytes @ 0xE000EDFC) -- CPU_WriteMem(4 bytes @ 0xE000EDFC) -- CPU_ReadMem(4 bytes @ 0xE0001000) -- CPU_WriteMem(4 bytes @ 0xE0001000)CoreSight components:ROMTbl[0] @ E00FF000 -- CPU_ReadMem(16 bytes @ 0xE00FF000) -- CPU_ReadMem(16 bytes @ 0xE000EFF0) -- CPU_ReadMem(16 bytes @ 0xE000EFE0)
ROMTbl[0][0]: E000E000, CID: B105E00D, PID: 000BB008 SCS -- CPU_ReadMem(16 bytes @ 0xE0001FF0) -- CPU_ReadMem(16 bytes @ 0xE0001FE0)ROMTbl[0][1]: E0001000, CID: B105E00D, PID: 000BB00A DWT -- CPU_ReadMem(16 bytes @ 0xE0002FF0) -- CPU_ReadMem(16 bytes @ 0xE0002FE0)ROMTbl[0][2]: E0002000, CID: B105E00D, PID: 000BB00B FPB  returns 0x0BB11477 (0723ms, 0912ms total)
T0020 000:940 JLINK_GetDLLVersion()  returns 65202 (0000ms, 0912ms total)
T0020 000:940 JLINK_CORE_GetFound()  returns 0x60000FF (0000ms, 0912ms total)
T0020 000:940 JLINK_GetDebugInfo(0x100 = JLINKARM_ROM_TABLE_ADDR_INDEX) -- Value=0xE00FF000  returns 0x00 (0000ms, 0912ms total)
T0020 000:946 JLINK_ReadMem (0xE00FF000, 0x0020 Bytes, ...) -- CPU_ReadMem(32 bytes @ 0xE00FF000) - Data: 03 F0 F0 FF 03 20 F0 FF 03 30 F0 FF 00 00 00 00 ...  returns 0x00 (0002ms, 0914ms total)
T0020 000:948 JLINK_ReadMem (0xE000EFF0, 0x0010 Bytes, ...) -- CPU_ReadMem(16 bytes @ 0xE000EFF0) - Data: 0D 00 00 00 E0 00 00 00 05 00 00 00 B1 00 00 00  returns 0x00 (0001ms, 0915ms total)
T0020 000:949 JLINK_ReadMem (0xE000EFD0, 0x0020 Bytes, ...) -- CPU_ReadMem(32 bytes @ 0xE000EFD0) - Data: 04 00 00 00 00 00 00 00 00 00 00 00 00 00 00 00 ...  returns 0x00 (0002ms, 0917ms total)
T0020 000:951 JLINK_ReadMem (0xE0001FF0, 0x0010 Bytes, ...) -- CPU_ReadMem(16 bytes @ 0xE0001FF0) - Data: 0D 00 00 00 E0 00 00 00 05 00 00 00 B1 00 00 00  returns 0x00 (0002ms, 0919ms total)
T0020 000:953 JLINK_ReadMem (0xE0001FD0, 0x0020 Bytes, ...) -- CPU_ReadMem(32 bytes @ 0xE0001FD0) - Data: 04 00 00 00 00 00 00 00 00 00 00 00 00 00 00 00 ...  returns 0x00 (0001ms, 0920ms total)
T0020 000:954 JLINK_ReadMem (0xE0002FF0, 0x0010 Bytes, ...) -- CPU_ReadMem(16 bytes @ 0xE0002FF0) - Data: 0D 00 00 00 E0 00 00 00 05 00 00 00 B1 00 00 00  returns 0x00 (0001ms, 0921ms total)
T0020 000:955 JLINK_ReadMem (0xE0002FD0, 0x0020 Bytes, ...) -- CPU_ReadMem(32 bytes @ 0xE0002FD0) - Data: 04 00 00 00 00 00 00 00 00 00 00 00 00 00 00 00 ...  returns 0x00 (0002ms, 0923ms total)
T0020 000:957 JLINK_ReadMemU32(0xE000ED00, 0x0001 Items, ...) -- CPU_ReadMem(4 bytes @ 0xE000ED00) - Data: 00 C2 0C 41  returns 1 (0001ms, 0924ms total)
T0020 000:958 JLINK_SetResetType(JLINKARM_CM3_RESET_TYPE_NORMAL)  returns JLINKARM_CM3_RESET_TYPE_NORMAL (0000ms, 0924ms total)
T0020 000:958 JLINK_Reset() -- CPU is running -- CPU_WriteMem(4 bytes @ 0xE000EDF0) -- CPU is running -- CPU_WriteMem(4 bytes @ 0xE000EDFC)Reset: Halt core after reset via DEMCR.VC_CORERESET.Reset: Reset device via AIRCR.SYSRESETREQ. -- CPU is running -- CPU_WriteMem(4 bytes @ 0xE000ED0C) -- CPU_ReadMem(4 bytes @ 0xE000EDF0) -- CPU_ReadMem(4 bytes @ 0xE000EDF0) -- CPU is running -- CPU_WriteMem(4 bytes @ 0xE000EDF0) -- CPU is running -- CPU_WriteMem(4 bytes @ 0xE000EDFC)
 -- CPU_ReadMem(4 bytes @ 0xE000EDF0) -- CPU_WriteMem(4 bytes @ 0xE0002000) -- CPU_ReadMem(4 bytes @ 0xE000EDFC) -- CPU_ReadMem(4 bytes @ 0xE0001000) -- CPU_WriteMem(4 bytes @ 0xE0001000) (0099ms, 1023ms total)
T0020 001:057 JLINK_Halt()  returns 0x00 (0000ms, 1023ms total)
T0020 001:057 JLINK_IsHalted()  returns TRUE (0000ms, 1023ms total)
T0020 001:058 JLINK_ReadMemU32(0xE000EDF0, 0x0001 Items, ...) -- CPU_ReadMem(4 bytes @ 0xE000EDF0) - Data: 03 00 03 00  returns 1 (0001ms, 1024ms total)
T0020 001:059 JLINK_WriteU32(0xE000EDF0, 0xA05F0003) -- CPU_WriteMem(4 bytes @ 0xE000EDF0)  returns 0 (0002ms, 1026ms total)
T0020 001:061 JLINK_WriteU32(0xE000EDFC, 0x01000000) -- CPU_WriteMem(4 bytes @ 0xE000EDFC)  returns 0 (0001ms, 1027ms total)
T0020 001:094 JLINK_GetHWStatus(...)  returns 0x00 (0001ms, 1028ms total)
T0020 001:105 JLINK_GetNumBPUnits(Type = 0xFFFFFF00)  returns 0x04 (0000ms, 1028ms total)
T0020 001:105 JLINK_GetNumBPUnits(Type = 0xF0)  returns 0x2000 (0000ms, 1028ms total)
T0020 001:105 JLINK_GetNumWPUnits()  returns 0x02 (0000ms, 1028ms total)
T0020 001:115 JLINK_GetSpeed()  returns 0xFA0 (0000ms, 1028ms total)
T0020 001:123 JLINK_ReadMemU32(0xE000E004, 0x0001 Items, ...) -- CPU_ReadMem(4 bytes @ 0xE000E004) - Data: 00 00 00 00  returns 1 (0002ms, 1030ms total)
T0020 001:125 JLINK_Halt()  returns 0x00 (0000ms, 1030ms total)
T0020 001:125 JLINK_IsHalted()  returns TRUE (0000ms, 1030ms total)
T0020 001:129 JLINK_WriteMem(0x20000000, 0x0224 Bytes, ...) - Data: 00 BE 0A E0 0D 78 2D 06 68 40 08 24 40 00 00 D3 ... -- CPU_WriteMem(548 bytes @ 0x20000000)  returns 0x224 (0008ms, 1038ms total)
T0020 001:137 JLINK_WriteReg(R0, 0x00000000)  returns 0x00 (0000ms, 1038ms total)
T0020 001:137 JLINK_WriteReg(R1, 0x00B71B00)  returns 0x00 (0000ms, 1038ms total)
T0020 001:137 JLINK_WriteReg(R2, 0x00000001)  returns 0x00 (0000ms, 1038ms total)
T0020 001:137 JLINK_WriteReg(R3, 0x00000000)  returns 0x00 (0000ms, 1038ms total)
T0020 001:137 JLINK_WriteReg(R4, 0x00000000)  returns 0x00 (0000ms, 1038ms total)
T0020 001:137 JLINK_WriteReg(R5, 0x00000000)  returns 0x00 (0000ms, 1038ms total)
T0020 001:137 JLINK_WriteReg(R6, 0x00000000)  returns 0x00 (0001ms, 1039ms total)
T0020 001:138 JLINK_WriteReg(R7, 0x00000000)  returns 0x00 (0000ms, 1039ms total)
T0020 001:138 JLINK_WriteReg(R8, 0x00000000)  returns 0x00 (0000ms, 1039ms total)
T0020 001:138 JLINK_WriteReg(R9, 0x20000220)  returns 0x00 (0000ms, 1039ms total)
T0020 001:138 JLINK_WriteReg(R10, 0x00000000)  returns 0x00 (0000ms, 1039ms total)
T0020 001:138 JLINK_WriteReg(R11, 0x00000000)  returns 0x00 (0000ms, 1039ms total)
T0020 001:138 JLINK_WriteReg(R12, 0x00000000)  returns 0x00 (0000ms, 1039ms total)
T0020 001:138 JLINK_WriteReg(R13 (SP), 0x20001000)  returns 0x00 (0000ms, 1039ms total)
T0020 001:138 JLINK_WriteReg(R14, 0x20000001)  returns 0x00 (0000ms, 1039ms total)
T0020 001:138 JLINK_WriteReg(R15 (PC), 0x20000038)  returns 0x00 (0000ms, 1039ms total)
T0020 001:138 JLINK_WriteReg(XPSR, 0x01000000)  returns 0x00 (0000ms, 1039ms total)
T0020 001:138 JLINK_WriteReg(MSP, 0x20001000)  returns 0x00 (0000ms, 1039ms total)
T0020 001:138 JLINK_WriteReg(PSP, 0x20001000)  returns 0x00 (0000ms, 1039ms total)
T0020 001:138 JLINK_WriteReg(CFBP, 0x00000000)  returns 0x00 (0000ms, 1039ms total)
T0020 001:138 JLINK_SetBPEx(Addr = 0x20000000, Type = 0xFFFFFFF2) -- CPU_ReadMem(2 bytes @ 0x20000000)  returns 0x00000001 (0001ms, 1040ms total)
T0020 001:139 JLINK_Go() -- CPU_WriteMem(2 bytes @ 0x20000000) -- CPU_ReadMem(4 bytes @ 0xE0001000) -- CPU_WriteMem(4 bytes @ 0xE0001000) -- CPU_WriteMem(4 bytes @ 0xE0002008) -- CPU_WriteMem(4 bytes @ 0xE000200C) -- CPU_WriteMem(4 bytes @ 0xE0002010) -- CPU_WriteMem(4 bytes @ 0xE0002014) -- CPU_WriteMem(4 bytes @ 0xE0001004) (0012ms, 1052ms total)
T0020 001:151 JLINK_IsHalted() -- CPU_ReadMem(2 bytes @ 0x20000000)  returns TRUE (0005ms, 1057ms total)
T0020 001:156 JLINK_ReadReg(R15 (PC))  returns 0x20000000 (0000ms, 1052ms total)
T0020 001:156 JLINK_ClrBPEx(BPHandle = 0x00000001)  returns 0x00 (0000ms, 1052ms total)
T0020 001:156 JLINK_ReadReg(R0)  returns 0x00000000 (0001ms, 1053ms total)
T0020 001:158 JLINK_WriteReg(R0, 0x00000000)  returns 0x00 (0000ms, 1053ms total)
T0020 001:158 JLINK_WriteReg(R1, 0x00000200)  returns 0x00 (0000ms, 1053ms total)
T0020 001:158 JLINK_WriteReg(R2, 0x000000FF)  returns 0x00 (0000ms, 1053ms total)
T0020 001:158 JLINK_WriteReg(R3, 0x00000000)  returns 0x00 (0000ms, 1053ms total)
T0020 001:158 JLINK_WriteReg(R4, 0x00000000)  returns 0x00 (0000ms, 1053ms total)
T0020 001:158 JLINK_WriteReg(R5, 0x00000000)  returns 0x00 (0000ms, 1053ms total)
T0020 001:158 JLINK_WriteReg(R6, 0x00000000)  returns 0x00 (0000ms, 1053ms total)
T0020 001:158 JLINK_WriteReg(R7, 0x00000000)  returns 0x00 (0000ms, 1053ms total)
T0020 001:158 JLINK_WriteReg(R8, 0x00000000)  returns 0x00 (0000ms, 1053ms total)
T0020 001:158 JLINK_WriteReg(R9, 0x20000220)  returns 0x00 (0000ms, 1053ms total)
T0020 001:158 JLINK_WriteReg(R10, 0x00000000)  returns 0x00 (0000ms, 1053ms total)
T0020 001:158 JLINK_WriteReg(R11, 0x00000000)  returns 0x00 (0000ms, 1053ms total)
T0020 001:158 JLINK_WriteReg(R12, 0x00000000)  returns 0x00 (0000ms, 1053ms total)
T0020 001:158 JLINK_WriteReg(R13 (SP), 0x20001000)  returns 0x00 (0000ms, 1053ms total)
T0020 001:158 JLINK_WriteReg(R14, 0x20000001)  returns 0x00 (0000ms, 1053ms total)
T0020 001:158 JLINK_WriteReg(R15 (PC), 0x20000020)  returns 0x00 (0000ms, 1053ms total)
T0020 001:158 JLINK_WriteReg(XPSR, 0x01000000)  returns 0x00 (0000ms, 1053ms total)
T0020 001:158 JLINK_WriteReg(MSP, 0x20001000)  returns 0x00 (0000ms, 1053ms total)
T0020 001:158 JLINK_WriteReg(PSP, 0x20001000)  returns 0x00 (0000ms, 1053ms total)
T0020 001:158 JLINK_WriteReg(CFBP, 0x00000000)  returns 0x00 (0000ms, 1053ms total)
T0020 001:158 JLINK_SetBPEx(Addr = 0x20000000, Type = 0xFFFFFFF2)  returns 0x00000002 (0000ms, 1053ms total)
T0020 001:158 JLINK_Go() -- CPU_ReadMem(4 bytes @ 0xE0001000) -- CPU_WriteMem(4 bytes @ 0xE0001000) (0008ms, 1061ms total)
T0020 001:166 JLINK_IsHalted() -- CPU_ReadMem(2 bytes @ 0x20000000)  returns TRUE (0006ms, 1067ms total)
T0020 001:172 JLINK_ReadReg(R15 (PC))  returns 0x20000000 (0000ms, 1061ms total)
T0020 001:172 JLINK_ClrBPEx(BPHandle = 0x00000002)  returns 0x00 (0000ms, 1061ms total)
T0020 001:172 JLINK_ReadReg(R0)  returns 0x00000000 (0000ms, 1061ms total)
T0020 001:173 JLINK_WriteReg(R0, 0x00000200)  returns 0x00 (0000ms, 1061ms total)
T0020 001:173 JLINK_WriteReg(R1, 0x00000200)  returns 0x00 (0000ms, 1061ms total)
T0020 001:173 JLINK_WriteReg(R2, 0x000000FF)  returns 0x00 (0000ms, 1061ms total)
T0020 001:173 JLINK_WriteReg(R3, 0x00000000)  returns 0x00 (0000ms, 1061ms total)
T0020 001:173 JLINK_WriteReg(R4, 0x00000000)  returns 0x00 (0000ms, 1061ms total)
T0020 001:173 JLINK_WriteReg(R5, 0x00000000)  returns 0x00 (0000ms, 1061ms total)
T0020 001:173 JLINK_WriteReg(R6, 0x00000000)  returns 0x00 (0000ms, 1061ms total)
T0020 001:173 JLINK_WriteReg(R7, 0x00000000)  returns 0x00 (0000ms, 1061ms total)
T0020 001:173 JLINK_WriteReg(R8, 0x00000000)  returns 0x00 (0000ms, 1061ms total)
T0020 001:173 JLINK_WriteReg(R9, 0x20000220)  returns 0x00 (0000ms, 1061ms total)
T0020 001:173 JLINK_WriteReg(R10, 0x00000000)  returns 0x00 (0000ms, 1061ms total)
T0020 001:173 JLINK_WriteReg(R11, 0x00000000)  returns 0x00 (0000ms, 1061ms total)
T0020 001:173 JLINK_WriteReg(R12, 0x00000000)  returns 0x00 (0000ms, 1061ms total)
T0020 001:173 JLINK_WriteReg(R13 (SP), 0x20001000)  returns 0x00 (0000ms, 1061ms total)
T0020 001:173 JLINK_WriteReg(R14, 0x20000001)  returns 0x00 (0000ms, 1061ms total)
T0020 001:173 JLINK_WriteReg(R15 (PC), 0x20000020)  returns 0x00 (0000ms, 1061ms total)
T0020 001:173 JLINK_WriteReg(XPSR, 0x01000000)  returns 0x00 (0000ms, 1061ms total)
T0020 001:173 JLINK_WriteReg(MSP, 0x20001000)  returns 0x00 (0000ms, 1061ms total)
T0020 001:173 JLINK_WriteReg(PSP, 0x20001000)  returns 0x00 (0000ms, 1061ms total)
T0020 001:173 JLINK_WriteReg(CFBP, 0x00000000)  returns 0x00 (0000ms, 1061ms total)
T0020 001:173 JLINK_SetBPEx(Addr = 0x20000000, Type = 0xFFFFFFF2)  returns 0x00000003 (0000ms, 1061ms total)
T0020 001:173 JLINK_Go() -- CPU_ReadMem(4 bytes @ 0xE0001000) -- CPU_WriteMem(4 bytes @ 0xE0001000) (0007ms, 1068ms total)
T0020 001:180 JLINK_IsHalted() -- CPU_ReadMem(2 bytes @ 0x20000000)  returns TRUE (0007ms, 1075ms total)
T0020 001:187 JLINK_ReadReg(R15 (PC))  returns 0x20000000 (0000ms, 1068ms total)
T0020 001:187 JLINK_ClrBPEx(BPHandle = 0x00000003)  returns 0x00 (0000ms, 1068ms total)
T0020 001:187 JLINK_ReadReg(R0)  returns 0x00000000 (0000ms, 1068ms total)
T0020 001:188 JLINK_WriteReg(R0, 0x00000400)  returns 0x00 (0000ms, 1068ms total)
T0020 001:188 JLINK_WriteReg(R1, 0x00000200)  returns 0x00 (0000ms, 1068ms total)
T0020 001:188 JLINK_WriteReg(R2, 0x000000FF)  returns 0x00 (0000ms, 1068ms total)
T0020 001:188 JLINK_WriteReg(R3, 0x00000000)  returns 0x00 (0000ms, 1068ms total)
T0020 001:188 JLINK_WriteReg(R4, 0x00000000)  returns 0x00 (0000ms, 1068ms total)
T0020 001:188 JLINK_WriteReg(R5, 0x00000000)  returns 0x00 (0000ms, 1068ms total)
T0020 001:188 JLINK_WriteReg(R6, 0x00000000)  returns 0x00 (0000ms, 1068ms total)
T0020 001:188 JLINK_WriteReg(R7, 0x00000000)  returns 0x00 (0001ms, 1069ms total)
T0020 001:189 JLINK_WriteReg(R8, 0x00000000)  returns 0x00 (0000ms, 1069ms total)
T0020 001:189 JLINK_WriteReg(R9, 0x20000220)  returns 0x00 (0000ms, 1069ms total)
T0020 001:189 JLINK_WriteReg(R10, 0x00000000)  returns 0x00 (0000ms, 1069ms total)
T0020 001:189 JLINK_WriteReg(R11, 0x00000000)  returns 0x00 (0000ms, 1069ms total)
T0020 001:189 JLINK_WriteReg(R12, 0x00000000)  returns 0x00 (0000ms, 1069ms total)
T0020 001:189 JLINK_WriteReg(R13 (SP), 0x20001000)  returns 0x00 (0000ms, 1069ms total)
T0020 001:189 JLINK_WriteReg(R14, 0x20000001)  returns 0x00 (0000ms, 1069ms total)
T0020 001:189 JLINK_WriteReg(R15 (PC), 0x20000020)  returns 0x00 (0000ms, 1069ms total)
T0020 001:189 JLINK_WriteReg(XPSR, 0x01000000)  returns 0x00 (0000ms, 1069ms total)
T0020 001:189 JLINK_WriteReg(MSP, 0x20001000)  returns 0x00 (0000ms, 1069ms total)
T0020 001:189 JLINK_WriteReg(PSP, 0x20001000)  returns 0x00 (0000ms, 1069ms total)
T0020 001:189 JLINK_WriteReg(CFBP, 0x00000000)  returns 0x00 (0000ms, 1069ms total)
T0020 001:189 JLINK_SetBPEx(Addr = 0x20000000, Type = 0xFFFFFFF2)  returns 0x00000004 (0000ms, 1069ms total)
T0020 001:189 JLINK_Go() -- CPU_ReadMem(4 bytes @ 0xE0001000) -- CPU_WriteMem(4 bytes @ 0xE0001000) (0007ms, 1076ms total)
T0020 001:197 JLINK_IsHalted() -- CPU_ReadMem(2 bytes @ 0x20000000)  returns TRUE (0006ms, 1083ms total)
T0020 001:203 JLINK_ReadReg(R15 (PC))  returns 0x20000000 (0000ms, 1077ms total)
T0020 001:203 JLINK_ClrBPEx(BPHandle = 0x00000004)  returns 0x00 (0000ms, 1077ms total)
T0020 001:203 JLINK_ReadReg(R0)  returns 0x00000000 (0000ms, 1077ms total)
T0020 001:205 JLINK_WriteReg(R0, 0x00000600)  returns 0x00 (0000ms, 1077ms total)
T0020 001:205 JLINK_WriteReg(R1, 0x00000200)  returns 0x00 (0000ms, 1077ms total)
T0020 001:205 JLINK_WriteReg(R2, 0x000000FF)  returns 0x00 (0000ms, 1077ms total)
T0020 001:205 JLINK_WriteReg(R3, 0x00000000)  returns 0x00 (0000ms, 1077ms total)
T0020 001:205 JLINK_WriteReg(R4, 0x00000000)  returns 0x00 (0000ms, 1077ms total)
T0020 001:205 JLINK_WriteReg(R5, 0x00000000)  returns 0x00 (0000ms, 1077ms total)
T0020 001:205 JLINK_WriteReg(R6, 0x00000000)  returns 0x00 (0000ms, 1077ms total)
T0020 001:205 JLINK_WriteReg(R7, 0x00000000)  returns 0x00 (0000ms, 1077ms total)
T0020 001:205 JLINK_WriteReg(R8, 0x00000000)  returns 0x00 (0000ms, 1077ms total)
T0020 001:205 JLINK_WriteReg(R9, 0x20000220)  returns 0x00 (0000ms, 1077ms total)
T0020 001:205 JLINK_WriteReg(R10, 0x00000000)  returns 0x00 (0000ms, 1077ms total)
T0020 001:205 JLINK_WriteReg(R11, 0x00000000)  returns 0x00 (0000ms, 1077ms total)
T0020 001:205 JLINK_WriteReg(R12, 0x00000000)  returns 0x00 (0000ms, 1077ms total)
T0020 001:205 JLINK_WriteReg(R13 (SP), 0x20001000)  returns 0x00 (0000ms, 1077ms total)
T0020 001:205 JLINK_WriteReg(R14, 0x20000001)  returns 0x00 (0000ms, 1077ms total)
T0020 001:205 JLINK_WriteReg(R15 (PC), 0x20000020)  returns 0x00 (0000ms, 1077ms total)
T0020 001:205 JLINK_WriteReg(XPSR, 0x01000000)  returns 0x00 (0000ms, 1077ms total)
T0020 001:205 JLINK_WriteReg(MSP, 0x20001000)  returns 0x00 (0000ms, 1077ms total)
T0020 001:205 JLINK_WriteReg(PSP, 0x20001000)  returns 0x00 (0001ms, 1078ms total)
T0020 001:206 JLINK_WriteReg(CFBP, 0x00000000)  returns 0x00 (0000ms, 1078ms total)
T0020 001:206 JLINK_SetBPEx(Addr = 0x20000000, Type = 0xFFFFFFF2)  returns 0x00000005 (0000ms, 1078ms total)
T0020 001:206 JLINK_Go() -- CPU_ReadMem(4 bytes @ 0xE0001000) -- CPU_WriteMem(4 bytes @ 0xE0001000) (0007ms, 1085ms total)
T0020 001:213 JLINK_IsHalted() -- CPU_ReadMem(2 bytes @ 0x20000000)  returns TRUE (0007ms, 1092ms total)
T0020 001:220 JLINK_ReadReg(R15 (PC))  returns 0x20000000 (0000ms, 1085ms total)
T0020 001:220 JLINK_ClrBPEx(BPHandle = 0x00000005)  returns 0x00 (0000ms, 1085ms total)
T0020 001:220 JLINK_ReadReg(R0)  returns 0x00000000 (0000ms, 1085ms total)
T0020 001:222 JLINK_WriteReg(R0, 0x00000800)  returns 0x00 (0000ms, 1085ms total)
T0020 001:222 JLINK_WriteReg(R1, 0x00000200)  returns 0x00 (0000ms, 1085ms total)
T0020 001:222 JLINK_WriteReg(R2, 0x000000FF)  returns 0x00 (0000ms, 1085ms total)
T0020 001:222 JLINK_WriteReg(R3, 0x00000000)  returns 0x00 (0000ms, 1085ms total)
T0020 001:222 JLINK_WriteReg(R4, 0x00000000)  returns 0x00 (0000ms, 1085ms total)
T0020 001:222 JLINK_WriteReg(R5, 0x00000000)  returns 0x00 (0000ms, 1085ms total)
T0020 001:222 JLINK_WriteReg(R6, 0x00000000)  returns 0x00 (0000ms, 1085ms total)
T0020 001:222 JLINK_WriteReg(R7, 0x00000000)  returns 0x00 (0000ms, 1085ms total)
T0020 001:222 JLINK_WriteReg(R8, 0x00000000)  returns 0x00 (0000ms, 1085ms total)
T0020 001:222 JLINK_WriteReg(R9, 0x20000220)  returns 0x00 (0000ms, 1085ms total)
T0020 001:222 JLINK_WriteReg(R10, 0x00000000)  returns 0x00 (0000ms, 1085ms total)
T0020 001:222 JLINK_WriteReg(R11, 0x00000000)  returns 0x00 (0000ms, 1085ms total)
T0020 001:222 JLINK_WriteReg(R12, 0x00000000)  returns 0x00 (0000ms, 1085ms total)
T0020 001:223 JLINK_WriteReg(R13 (SP), 0x20001000)  returns 0x00 (0000ms, 1085ms total)
T0020 001:223 JLINK_WriteReg(R14, 0x20000001)  returns 0x00 (0000ms, 1085ms total)
T0020 001:223 JLINK_WriteReg(R15 (PC), 0x20000020)  returns 0x00 (0000ms, 1085ms total)
T0020 001:223 JLINK_WriteReg(XPSR, 0x01000000)  returns 0x00 (0000ms, 1085ms total)
T0020 001:223 JLINK_WriteReg(MSP, 0x20001000)  returns 0x00 (0000ms, 1085ms total)
T0020 001:223 JLINK_WriteReg(PSP, 0x20001000)  returns 0x00 (0000ms, 1085ms total)
T0020 001:223 JLINK_WriteReg(CFBP, 0x00000000)  returns 0x00 (0000ms, 1085ms total)
T0020 001:223 JLINK_SetBPEx(Addr = 0x20000000, Type = 0xFFFFFFF2)  returns 0x00000006 (0000ms, 1085ms total)
T0020 001:223 JLINK_Go() -- CPU_ReadMem(4 bytes @ 0xE0001000) -- CPU_WriteMem(4 bytes @ 0xE0001000) (0008ms, 1093ms total)
T0020 001:231 JLINK_IsHalted() -- CPU_ReadMem(2 bytes @ 0x20000000)  returns TRUE (0006ms, 1099ms total)
T0020 001:237 JLINK_ReadReg(R15 (PC))  returns 0x20000000 (0000ms, 1093ms total)
T0020 001:237 JLINK_ClrBPEx(BPHandle = 0x00000006)  returns 0x00 (0000ms, 1093ms total)
T0020 001:237 JLINK_ReadReg(R0)  returns 0x00000000 (0000ms, 1093ms total)
T0020 001:239 JLINK_WriteReg(R0, 0x00000A00)  returns 0x00 (0000ms, 1094ms total)
T0020 001:239 JLINK_WriteReg(R1, 0x00000200)  returns 0x00 (0000ms, 1094ms total)
T0020 001:239 JLINK_WriteReg(R2, 0x000000FF)  returns 0x00 (0000ms, 1094ms total)
T0020 001:239 JLINK_WriteReg(R3, 0x00000000)  returns 0x00 (0000ms, 1094ms total)
T0020 001:239 JLINK_WriteReg(R4, 0x00000000)  returns 0x00 (0000ms, 1094ms total)
T0020 001:239 JLINK_WriteReg(R5, 0x00000000)  returns 0x00 (0000ms, 1094ms total)
T0020 001:239 JLINK_WriteReg(R6, 0x00000000)  returns 0x00 (0000ms, 1094ms total)
T0020 001:239 JLINK_WriteReg(R7, 0x00000000)  returns 0x00 (0000ms, 1094ms total)
T0020 001:239 JLINK_WriteReg(R8, 0x00000000)  returns 0x00 (0000ms, 1094ms total)
T0020 001:239 JLINK_WriteReg(R9, 0x20000220)  returns 0x00 (0000ms, 1094ms total)
T0020 001:239 JLINK_WriteReg(R10, 0x00000000)  returns 0x00 (0000ms, 1094ms total)
T0020 001:239 JLINK_WriteReg(R11, 0x00000000)  returns 0x00 (0000ms, 1094ms total)
T0020 001:239 JLINK_WriteReg(R12, 0x00000000)  returns 0x00 (0000ms, 1094ms total)
T0020 001:239 JLINK_WriteReg(R13 (SP), 0x20001000)  returns 0x00 (0000ms, 1094ms total)
T0020 001:239 JLINK_WriteReg(R14, 0x20000001)  returns 0x00 (0000ms, 1094ms total)
T0020 001:239 JLINK_WriteReg(R15 (PC), 0x20000020)  returns 0x00 (0000ms, 1094ms total)
T0020 001:239 JLINK_WriteReg(XPSR, 0x01000000)  returns 0x00 (0000ms, 1094ms total)
T0020 001:239 JLINK_WriteReg(MSP, 0x20001000)  returns 0x00 (0000ms, 1094ms total)
T0020 001:239 JLINK_WriteReg(PSP, 0x20001000)  returns 0x00 (0000ms, 1094ms total)
T0020 001:239 JLINK_WriteReg(CFBP, 0x00000000)  returns 0x00 (0000ms, 1094ms total)
T0020 001:239 JLINK_SetBPEx(Addr = 0x20000000, Type = 0xFFFFFFF2)  returns 0x00000007 (0000ms, 1094ms total)
T0020 001:239 JLINK_Go() -- CPU_ReadMem(4 bytes @ 0xE0001000) -- CPU_WriteMem(4 bytes @ 0xE0001000) (0008ms, 1102ms total)
T0020 001:247 JLINK_IsHalted() -- CPU_ReadMem(2 bytes @ 0x20000000)  returns TRUE (0007ms, 1109ms total)
T0020 001:254 JLINK_ReadReg(R15 (PC))  returns 0x20000000 (0000ms, 1102ms total)
T0020 001:254 JLINK_ClrBPEx(BPHandle = 0x00000007)  returns 0x00 (0000ms, 1102ms total)
T0020 001:254 JLINK_ReadReg(R0)  returns 0x00000000 (0000ms, 1102ms total)
T0020 001:256 JLINK_WriteReg(R0, 0x00000C00)  returns 0x00 (0000ms, 1102ms total)
T0020 001:256 JLINK_WriteReg(R1, 0x00000200)  returns 0x00 (0000ms, 1102ms total)
T0020 001:256 JLINK_WriteReg(R2, 0x000000FF)  returns 0x00 (0000ms, 1102ms total)
T0020 001:256 JLINK_WriteReg(R3, 0x00000000)  returns 0x00 (0000ms, 1102ms total)
T0020 001:256 JLINK_WriteReg(R4, 0x00000000)  returns 0x00 (0000ms, 1102ms total)
T0020 001:256 JLINK_WriteReg(R5, 0x00000000)  returns 0x00 (0000ms, 1102ms total)
T0020 001:256 JLINK_WriteReg(R6, 0x00000000)  returns 0x00 (0000ms, 1102ms total)
T0020 001:256 JLINK_WriteReg(R7, 0x00000000)  returns 0x00 (0000ms, 1102ms total)
T0020 001:256 JLINK_WriteReg(R8, 0x00000000)  returns 0x00 (0000ms, 1102ms total)
T0020 001:256 JLINK_WriteReg(R9, 0x20000220)  returns 0x00 (0000ms, 1102ms total)
T0020 001:256 JLINK_WriteReg(R10, 0x00000000)  returns 0x00 (0000ms, 1102ms total)
T0020 001:256 JLINK_WriteReg(R11, 0x00000000)  returns 0x00 (0000ms, 1102ms total)
T0020 001:257 JLINK_WriteReg(R12, 0x00000000)  returns 0x00 (0000ms, 1103ms total)
T0020 001:257 JLINK_WriteReg(R13 (SP), 0x20001000)  returns 0x00 (0000ms, 1103ms total)
T0020 001:257 JLINK_WriteReg(R14, 0x20000001)  returns 0x00 (0000ms, 1103ms total)
T0020 001:257 JLINK_WriteReg(R15 (PC), 0x20000020)  returns 0x00 (0000ms, 1103ms total)
T0020 001:257 JLINK_WriteReg(XPSR, 0x01000000)  returns 0x00 (0000ms, 1103ms total)
T0020 001:257 JLINK_WriteReg(MSP, 0x20001000)  returns 0x00 (0000ms, 1103ms total)
T0020 001:257 JLINK_WriteReg(PSP, 0x20001000)  returns 0x00 (0000ms, 1103ms total)
T0020 001:257 JLINK_WriteReg(CFBP, 0x00000000)  returns 0x00 (0000ms, 1103ms total)
T0020 001:257 JLINK_SetBPEx(Addr = 0x20000000, Type = 0xFFFFFFF2)  returns 0x00000008 (0000ms, 1103ms total)
T0020 001:257 JLINK_Go() -- CPU_ReadMem(4 bytes @ 0xE0001000) -- CPU_WriteMem(4 bytes @ 0xE0001000) (0008ms, 1111ms total)
T0020 001:265 JLINK_IsHalted() -- CPU_ReadMem(2 bytes @ 0x20000000)  returns TRUE (0006ms, 1117ms total)
T0020 001:271 JLINK_ReadReg(R15 (PC))  returns 0x20000000 (0000ms, 1111ms total)
T0020 001:271 JLINK_ClrBPEx(BPHandle = 0x00000008)  returns 0x00 (0000ms, 1111ms total)
T0020 001:271 JLINK_ReadReg(R0)  returns 0x00000000 (0000ms, 1111ms total)
T0020 001:273 JLINK_WriteReg(R0, 0x00000E00)  returns 0x00 (0000ms, 1111ms total)
T0020 001:273 JLINK_WriteReg(R1, 0x00000200)  returns 0x00 (0000ms, 1111ms total)
T0020 001:273 JLINK_WriteReg(R2, 0x000000FF)  returns 0x00 (0000ms, 1111ms total)
T0020 001:273 JLINK_WriteReg(R3, 0x00000000)  returns 0x00 (0000ms, 1111ms total)
T0020 001:273 JLINK_WriteReg(R4, 0x00000000)  returns 0x00 (0000ms, 1111ms total)
T0020 001:273 JLINK_WriteReg(R5, 0x00000000)  returns 0x00 (0000ms, 1111ms total)
T0020 001:273 JLINK_WriteReg(R6, 0x00000000)  returns 0x00 (0000ms, 1111ms total)
T0020 001:273 JLINK_WriteReg(R7, 0x00000000)  returns 0x00 (0000ms, 1111ms total)
T0020 001:273 JLINK_WriteReg(R8, 0x00000000)  returns 0x00 (0001ms, 1112ms total)
T0020 001:274 JLINK_WriteReg(R9, 0x20000220)  returns 0x00 (0000ms, 1112ms total)
T0020 001:274 JLINK_WriteReg(R10, 0x00000000)  returns 0x00 (0000ms, 1112ms total)
T0020 001:274 JLINK_WriteReg(R11, 0x00000000)  returns 0x00 (0000ms, 1112ms total)
T0020 001:274 JLINK_WriteReg(R12, 0x00000000)  returns 0x00 (0000ms, 1112ms total)
T0020 001:274 JLINK_WriteReg(R13 (SP), 0x20001000)  returns 0x00 (0000ms, 1112ms total)
T0020 001:274 JLINK_WriteReg(R14, 0x20000001)  returns 0x00 (0000ms, 1112ms total)
T0020 001:274 JLINK_WriteReg(R15 (PC), 0x20000020)  returns 0x00 (0000ms, 1112ms total)
T0020 001:274 JLINK_WriteReg(XPSR, 0x01000000)  returns 0x00 (0000ms, 1112ms total)
T0020 001:274 JLINK_WriteReg(MSP, 0x20001000)  returns 0x00 (0000ms, 1112ms total)
T0020 001:274 JLINK_WriteReg(PSP, 0x20001000)  returns 0x00 (0000ms, 1112ms total)
T0020 001:274 JLINK_WriteReg(CFBP, 0x00000000)  returns 0x00 (0000ms, 1112ms total)
T0020 001:274 JLINK_SetBPEx(Addr = 0x20000000, Type = 0xFFFFFFF2)  returns 0x00000009 (0000ms, 1112ms total)
T0020 001:274 JLINK_Go() -- CPU_ReadMem(4 bytes @ 0xE0001000) -- CPU_WriteMem(4 bytes @ 0xE0001000) (0007ms, 1119ms total)
T0020 001:281 JLINK_IsHalted() -- CPU_ReadMem(2 bytes @ 0x20000000)  returns TRUE (0007ms, 1126ms total)
T0020 001:288 JLINK_ReadReg(R15 (PC))  returns 0x20000000 (0000ms, 1119ms total)
T0020 001:288 JLINK_ClrBPEx(BPHandle = 0x00000009)  returns 0x00 (0000ms, 1119ms total)
T0020 001:288 JLINK_ReadReg(R0)  returns 0x00000000 (0000ms, 1119ms total)
T0020 001:289 JLINK_WriteReg(R0, 0x00001000)  returns 0x00 (0000ms, 1119ms total)
T0020 001:289 JLINK_WriteReg(R1, 0x00000200)  returns 0x00 (0000ms, 1119ms total)
T0020 001:289 JLINK_WriteReg(R2, 0x000000FF)  returns 0x00 (0000ms, 1119ms total)
T0020 001:289 JLINK_WriteReg(R3, 0x00000000)  returns 0x00 (0000ms, 1119ms total)
T0020 001:289 JLINK_WriteReg(R4, 0x00000000)  returns 0x00 (0001ms, 1120ms total)
T0020 001:290 JLINK_WriteReg(R5, 0x00000000)  returns 0x00 (0000ms, 1120ms total)
T0020 001:290 JLINK_WriteReg(R6, 0x00000000)  returns 0x00 (0000ms, 1120ms total)
T0020 001:290 JLINK_WriteReg(R7, 0x00000000)  returns 0x00 (0000ms, 1120ms total)
T0020 001:290 JLINK_WriteReg(R8, 0x00000000)  returns 0x00 (0000ms, 1120ms total)
T0020 001:290 JLINK_WriteReg(R9, 0x20000220)  returns 0x00 (0000ms, 1120ms total)
T0020 001:290 JLINK_WriteReg(R10, 0x00000000)  returns 0x00 (0000ms, 1120ms total)
T0020 001:290 JLINK_WriteReg(R11, 0x00000000)  returns 0x00 (0000ms, 1120ms total)
T0020 001:290 JLINK_WriteReg(R12, 0x00000000)  returns 0x00 (0000ms, 1120ms total)
T0020 001:290 JLINK_WriteReg(R13 (SP), 0x20001000)  returns 0x00 (0000ms, 1120ms total)
T0020 001:290 JLINK_WriteReg(R14, 0x20000001)  returns 0x00 (0000ms, 1120ms total)
T0020 001:290 JLINK_WriteReg(R15 (PC), 0x20000020)  returns 0x00 (0000ms, 1120ms total)
T0020 001:290 JLINK_WriteReg(XPSR, 0x01000000)  returns 0x00 (0000ms, 1120ms total)
T0020 001:290 JLINK_WriteReg(MSP, 0x20001000)  returns 0x00 (0000ms, 1120ms total)
T0020 001:290 JLINK_WriteReg(PSP, 0x20001000)  returns 0x00 (0000ms, 1120ms total)
T0020 001:290 JLINK_WriteReg(CFBP, 0x00000000)  returns 0x00 (0000ms, 1120ms total)
T0020 001:290 JLINK_SetBPEx(Addr = 0x20000000, Type = 0xFFFFFFF2)  returns 0x0000000A (0000ms, 1120ms total)
T0020 001:290 JLINK_Go() -- CPU_ReadMem(4 bytes @ 0xE0001000) -- CPU_WriteMem(4 bytes @ 0xE0001000) (0009ms, 1129ms total)
T0020 001:299 JLINK_IsHalted() -- CPU_ReadMem(2 bytes @ 0x20000000)  returns TRUE (0006ms, 1135ms total)
T0020 001:305 JLINK_ReadReg(R15 (PC))  returns 0x20000000 (0000ms, 1129ms total)
T0020 001:305 JLINK_ClrBPEx(BPHandle = 0x0000000A)  returns 0x00 (0000ms, 1129ms total)
T0020 001:305 JLINK_ReadReg(R0)  returns 0x00000000 (0001ms, 1130ms total)
T0020 001:307 JLINK_WriteReg(R0, 0x00001200)  returns 0x00 (0000ms, 1130ms total)
T0020 001:307 JLINK_WriteReg(R1, 0x00000200)  returns 0x00 (0000ms, 1130ms total)
T0020 001:307 JLINK_WriteReg(R2, 0x000000FF)  returns 0x00 (0000ms, 1130ms total)
T0020 001:307 JLINK_WriteReg(R3, 0x00000000)  returns 0x00 (0000ms, 1130ms total)
T0020 001:307 JLINK_WriteReg(R4, 0x00000000)  returns 0x00 (0000ms, 1130ms total)
T0020 001:307 JLINK_WriteReg(R5, 0x00000000)  returns 0x00 (0000ms, 1130ms total)
T0020 001:307 JLINK_WriteReg(R6, 0x00000000)  returns 0x00 (0000ms, 1130ms total)
T0020 001:307 JLINK_WriteReg(R7, 0x00000000)  returns 0x00 (0001ms, 1131ms total)
T0020 001:308 JLINK_WriteReg(R8, 0x00000000)  returns 0x00 (0000ms, 1131ms total)
T0020 001:308 JLINK_WriteReg(R9, 0x20000220)  returns 0x00 (0000ms, 1131ms total)
T0020 001:308 JLINK_WriteReg(R10, 0x00000000)  returns 0x00 (0000ms, 1131ms total)
T0020 001:308 JLINK_WriteReg(R11, 0x00000000)  returns 0x00 (0000ms, 1131ms total)
T0020 001:308 JLINK_WriteReg(R12, 0x00000000)  returns 0x00 (0000ms, 1131ms total)
T0020 001:308 JLINK_WriteReg(R13 (SP), 0x20001000)  returns 0x00 (0000ms, 1131ms total)
T0020 001:308 JLINK_WriteReg(R14, 0x20000001)  returns 0x00 (0000ms, 1131ms total)
T0020 001:308 JLINK_WriteReg(R15 (PC), 0x20000020)  returns 0x00 (0000ms, 1131ms total)
T0020 001:308 JLINK_WriteReg(XPSR, 0x01000000)  returns 0x00 (0000ms, 1131ms total)
T0020 001:308 JLINK_WriteReg(MSP, 0x20001000)  returns 0x00 (0000ms, 1131ms total)
T0020 001:308 JLINK_WriteReg(PSP, 0x20001000)  returns 0x00 (0000ms, 1131ms total)
T0020 001:308 JLINK_WriteReg(CFBP, 0x00000000)  returns 0x00 (0000ms, 1131ms total)
T0020 001:308 JLINK_SetBPEx(Addr = 0x20000000, Type = 0xFFFFFFF2)  returns 0x0000000B (0000ms, 1131ms total)
T0020 001:308 JLINK_Go() -- CPU_ReadMem(4 bytes @ 0xE0001000) -- CPU_WriteMem(4 bytes @ 0xE0001000) (0009ms, 1140ms total)
T0020 001:317 JLINK_IsHalted() -- CPU_ReadMem(2 bytes @ 0x20000000)  returns TRUE (0006ms, 1146ms total)
T0020 001:323 JLINK_ReadReg(R15 (PC))  returns 0x20000000 (0001ms, 1141ms total)
T0020 001:324 JLINK_ClrBPEx(BPHandle = 0x0000000B)  returns 0x00 (0000ms, 1141ms total)
T0020 001:324 JLINK_ReadReg(R0)  returns 0x00000000 (0000ms, 1141ms total)
T0020 001:325 JLINK_WriteReg(R0, 0x00001400)  returns 0x00 (0000ms, 1141ms total)
T0020 001:325 JLINK_WriteReg(R1, 0x00000200)  returns 0x00 (0000ms, 1141ms total)
T0020 001:325 JLINK_WriteReg(R2, 0x000000FF)  returns 0x00 (0000ms, 1141ms total)
T0020 001:325 JLINK_WriteReg(R3, 0x00000000)  returns 0x00 (0000ms, 1141ms total)
T0020 001:325 JLINK_WriteReg(R4, 0x00000000)  returns 0x00 (0000ms, 1141ms total)
T0020 001:325 JLINK_WriteReg(R5, 0x00000000)  returns 0x00 (0000ms, 1141ms total)
T0020 001:325 JLINK_WriteReg(R6, 0x00000000)  returns 0x00 (0000ms, 1141ms total)
T0020 001:325 JLINK_WriteReg(R7, 0x00000000)  returns 0x00 (0000ms, 1141ms total)
T0020 001:325 JLINK_WriteReg(R8, 0x00000000)  returns 0x00 (0000ms, 1141ms total)
T0020 001:325 JLINK_WriteReg(R9, 0x20000220)  returns 0x00 (0001ms, 1142ms total)
T0020 001:326 JLINK_WriteReg(R10, 0x00000000)  returns 0x00 (0000ms, 1142ms total)
T0020 001:326 JLINK_WriteReg(R11, 0x00000000)  returns 0x00 (0000ms, 1142ms total)
T0020 001:326 JLINK_WriteReg(R12, 0x00000000)  returns 0x00 (0000ms, 1142ms total)
T0020 001:326 JLINK_WriteReg(R13 (SP), 0x20001000)  returns 0x00 (0000ms, 1142ms total)
T0020 001:326 JLINK_WriteReg(R14, 0x20000001)  returns 0x00 (0000ms, 1142ms total)
T0020 001:326 JLINK_WriteReg(R15 (PC), 0x20000020)  returns 0x00 (0000ms, 1142ms total)
T0020 001:326 JLINK_WriteReg(XPSR, 0x01000000)  returns 0x00 (0000ms, 1142ms total)
T0020 001:326 JLINK_WriteReg(MSP, 0x20001000)  returns 0x00 (0000ms, 1142ms total)
T0020 001:326 JLINK_WriteReg(PSP, 0x20001000)  returns 0x00 (0000ms, 1142ms total)
T0020 001:326 JLINK_WriteReg(CFBP, 0x00000000)  returns 0x00 (0000ms, 1142ms total)
T0020 001:326 JLINK_SetBPEx(Addr = 0x20000000, Type = 0xFFFFFFF2)  returns 0x0000000C (0000ms, 1142ms total)
T0020 001:326 JLINK_Go() -- CPU_ReadMem(4 bytes @ 0xE0001000) -- CPU_WriteMem(4 bytes @ 0xE0001000) (0008ms, 1150ms total)
T0020 001:334 JLINK_IsHalted() -- CPU_ReadMem(2 bytes @ 0x20000000)  returns TRUE (0006ms, 1156ms total)
T0020 001:340 JLINK_ReadReg(R15 (PC))  returns 0x20000000 (0000ms, 1150ms total)
T0020 001:340 JLINK_ClrBPEx(BPHandle = 0x0000000C)  returns 0x00 (0000ms, 1150ms total)
T0020 001:340 JLINK_ReadReg(R0)  returns 0x00000000 (0000ms, 1150ms total)
T0020 001:341 JLINK_WriteReg(R0, 0x00001600)  returns 0x00 (0000ms, 1150ms total)
T0020 001:341 JLINK_WriteReg(R1, 0x00000200)  returns 0x00 (0001ms, 1151ms total)
T0020 001:342 JLINK_WriteReg(R2, 0x000000FF)  returns 0x00 (0000ms, 1151ms total)
T0020 001:342 JLINK_WriteReg(R3, 0x00000000)  returns 0x00 (0000ms, 1151ms total)
T0020 001:342 JLINK_WriteReg(R4, 0x00000000)  returns 0x00 (0000ms, 1151ms total)
T0020 001:342 JLINK_WriteReg(R5, 0x00000000)  returns 0x00 (0000ms, 1151ms total)
T0020 001:342 JLINK_WriteReg(R6, 0x00000000)  returns 0x00 (0000ms, 1151ms total)
T0020 001:342 JLINK_WriteReg(R7, 0x00000000)  returns 0x00 (0000ms, 1151ms total)
T0020 001:342 JLINK_WriteReg(R8, 0x00000000)  returns 0x00 (0000ms, 1151ms total)
T0020 001:342 JLINK_WriteReg(R9, 0x20000220)  returns 0x00 (0000ms, 1151ms total)
T0020 001:342 JLINK_WriteReg(R10, 0x00000000)  returns 0x00 (0000ms, 1151ms total)
T0020 001:342 JLINK_WriteReg(R11, 0x00000000)  returns 0x00 (0000ms, 1151ms total)
T0020 001:342 JLINK_WriteReg(R12, 0x00000000)  returns 0x00 (0000ms, 1151ms total)
T0020 001:342 JLINK_WriteReg(R13 (SP), 0x20001000)  returns 0x00 (0000ms, 1151ms total)
T0020 001:342 JLINK_WriteReg(R14, 0x20000001)  returns 0x00 (0000ms, 1151ms total)
T0020 001:342 JLINK_WriteReg(R15 (PC), 0x20000020)  returns 0x00 (0000ms, 1151ms total)
T0020 001:342 JLINK_WriteReg(XPSR, 0x01000000)  returns 0x00 (0000ms, 1151ms total)
T0020 001:342 JLINK_WriteReg(MSP, 0x20001000)  returns 0x00 (0000ms, 1151ms total)
T0020 001:342 JLINK_WriteReg(PSP, 0x20001000)  returns 0x00 (0000ms, 1151ms total)
T0020 001:342 JLINK_WriteReg(CFBP, 0x00000000)  returns 0x00 (0000ms, 1151ms total)
T0020 001:342 JLINK_SetBPEx(Addr = 0x20000000, Type = 0xFFFFFFF2)  returns 0x0000000D (0000ms, 1151ms total)
T0020 001:342 JLINK_Go() -- CPU_ReadMem(4 bytes @ 0xE0001000) -- CPU_WriteMem(4 bytes @ 0xE0001000) (0007ms, 1158ms total)
T0020 001:349 JLINK_IsHalted() -- CPU_ReadMem(2 bytes @ 0x20000000)  returns TRUE (0007ms, 1165ms total)
T0020 001:356 JLINK_ReadReg(R15 (PC))  returns 0x20000000 (0000ms, 1158ms total)
T0020 001:356 JLINK_ClrBPEx(BPHandle = 0x0000000D)  returns 0x00 (0000ms, 1158ms total)
T0020 001:356 JLINK_ReadReg(R0)  returns 0x00000000 (0000ms, 1158ms total)
T0020 001:357 JLINK_WriteReg(R0, 0x00001800)  returns 0x00 (0001ms, 1159ms total)
T0020 001:358 JLINK_WriteReg(R1, 0x00000200)  returns 0x00 (0000ms, 1159ms total)
T0020 001:358 JLINK_WriteReg(R2, 0x000000FF)  returns 0x00 (0000ms, 1159ms total)
T0020 001:358 JLINK_WriteReg(R3, 0x00000000)  returns 0x00 (0000ms, 1159ms total)
T0020 001:358 JLINK_WriteReg(R4, 0x00000000)  returns 0x00 (0000ms, 1159ms total)
T0020 001:358 JLINK_WriteReg(R5, 0x00000000)  returns 0x00 (0000ms, 1159ms total)
T0020 001:358 JLINK_WriteReg(R6, 0x00000000)  returns 0x00 (0000ms, 1159ms total)
T0020 001:358 JLINK_WriteReg(R7, 0x00000000)  returns 0x00 (0000ms, 1159ms total)
T0020 001:358 JLINK_WriteReg(R8, 0x00000000)  returns 0x00 (0000ms, 1159ms total)
T0020 001:358 JLINK_WriteReg(R9, 0x20000220)  returns 0x00 (0000ms, 1159ms total)
T0020 001:358 JLINK_WriteReg(R10, 0x00000000)  returns 0x00 (0000ms, 1159ms total)
T0020 001:358 JLINK_WriteReg(R11, 0x00000000)  returns 0x00 (0000ms, 1159ms total)
T0020 001:358 JLINK_WriteReg(R12, 0x00000000)  returns 0x00 (0000ms, 1159ms total)
T0020 001:358 JLINK_WriteReg(R13 (SP), 0x20001000)  returns 0x00 (0000ms, 1159ms total)
T0020 001:358 JLINK_WriteReg(R14, 0x20000001)  returns 0x00 (0000ms, 1159ms total)
T0020 001:358 JLINK_WriteReg(R15 (PC), 0x20000020)  returns 0x00 (0000ms, 1159ms total)
T0020 001:358 JLINK_WriteReg(XPSR, 0x01000000)  returns 0x00 (0000ms, 1159ms total)
T0020 001:358 JLINK_WriteReg(MSP, 0x20001000)  returns 0x00 (0000ms, 1159ms total)
T0020 001:358 JLINK_WriteReg(PSP, 0x20001000)  returns 0x00 (0000ms, 1159ms total)
T0020 001:358 JLINK_WriteReg(CFBP, 0x00000000)  returns 0x00 (0000ms, 1159ms total)
T0020 001:358 JLINK_SetBPEx(Addr = 0x20000000, Type = 0xFFFFFFF2)  returns 0x0000000E (0000ms, 1159ms total)
T0020 001:358 JLINK_Go() -- CPU_ReadMem(4 bytes @ 0xE0001000) -- CPU_WriteMem(4 bytes @ 0xE0001000) (0008ms, 1167ms total)
T0020 001:366 JLINK_IsHalted() -- CPU_ReadMem(2 bytes @ 0x20000000)  returns TRUE (0006ms, 1173ms total)
T0020 001:372 JLINK_ReadReg(R15 (PC))  returns 0x20000000 (0000ms, 1167ms total)
T0020 001:372 JLINK_ClrBPEx(BPHandle = 0x0000000E)  returns 0x00 (0001ms, 1168ms total)
T0020 001:373 JLINK_ReadReg(R0)  returns 0x00000000 (0000ms, 1168ms total)
T0020 001:374 JLINK_WriteReg(R0, 0x00000001)  returns 0x00 (0000ms, 1168ms total)
T0020 001:374 JLINK_WriteReg(R1, 0x00000200)  returns 0x00 (0000ms, 1168ms total)
T0020 001:374 JLINK_WriteReg(R2, 0x000000FF)  returns 0x00 (0000ms, 1168ms total)
T0020 001:374 JLINK_WriteReg(R3, 0x00000000)  returns 0x00 (0000ms, 1168ms total)
T0020 001:374 JLINK_WriteReg(R4, 0x00000000)  returns 0x00 (0000ms, 1168ms total)
T0020 001:374 JLINK_WriteReg(R5, 0x00000000)  returns 0x00 (0000ms, 1168ms total)
T0020 001:374 JLINK_WriteReg(R6, 0x00000000)  returns 0x00 (0000ms, 1168ms total)
T0020 001:374 JLINK_WriteReg(R7, 0x00000000)  returns 0x00 (0000ms, 1168ms total)
T0020 001:374 JLINK_WriteReg(R8, 0x00000000)  returns 0x00 (0000ms, 1168ms total)
T0020 001:374 JLINK_WriteReg(R9, 0x20000220)  returns 0x00 (0000ms, 1168ms total)
T0020 001:374 JLINK_WriteReg(R10, 0x00000000)  returns 0x00 (0000ms, 1168ms total)
T0020 001:374 JLINK_WriteReg(R11, 0x00000000)  returns 0x00 (0000ms, 1168ms total)
T0020 001:374 JLINK_WriteReg(R12, 0x00000000)  returns 0x00 (0000ms, 1168ms total)
T0020 001:374 JLINK_WriteReg(R13 (SP), 0x20001000)  returns 0x00 (0000ms, 1168ms total)
T0020 001:374 JLINK_WriteReg(R14, 0x20000001)  returns 0x00 (0000ms, 1168ms total)
T0020 001:374 JLINK_WriteReg(R15 (PC), 0x200000B4)  returns 0x00 (0000ms, 1168ms total)
T0020 001:374 JLINK_WriteReg(XPSR, 0x01000000)  returns 0x00 (0000ms, 1168ms total)
T0020 001:374 JLINK_WriteReg(MSP, 0x20001000)  returns 0x00 (0000ms, 1168ms total)
T0020 001:374 JLINK_WriteReg(PSP, 0x20001000)  returns 0x00 (0000ms, 1168ms total)
T0020 001:374 JLINK_WriteReg(CFBP, 0x00000000)  returns 0x00 (0000ms, 1168ms total)
T0020 001:374 JLINK_SetBPEx(Addr = 0x20000000, Type = 0xFFFFFFF2)  returns 0x0000000F (0000ms, 1168ms total)
T0020 001:374 JLINK_Go() -- CPU_ReadMem(4 bytes @ 0xE0001000) -- CPU_WriteMem(4 bytes @ 0xE0001000) (0009ms, 1177ms total)
T0020 001:383 JLINK_IsHalted() -- CPU_ReadMem(2 bytes @ 0x20000000)  returns TRUE (0006ms, 1183ms total)
T0020 001:389 JLINK_ReadReg(R15 (PC))  returns 0x20000000 (0000ms, 1177ms total)
T0020 001:389 JLINK_ClrBPEx(BPHandle = 0x0000000F)  returns 0x00 (0000ms, 1177ms total)
T0020 001:389 JLINK_ReadReg(R0)  returns 0x00000000 (0000ms, 1177ms total)
T0020 001:455 JLINK_WriteMem(0x20000000, 0x0224 Bytes, ...) - Data: 00 BE 0A E0 0D 78 2D 06 68 40 08 24 40 00 00 D3 ... -- CPU_WriteMem(548 bytes @ 0x20000000)  returns 0x224 (0008ms, 1185ms total)
T0020 001:463 JLINK_WriteReg(R0, 0x00000000)  returns 0x00 (0000ms, 1185ms total)
T0020 001:463 JLINK_WriteReg(R1, 0x00B71B00)  returns 0x00 (0000ms, 1185ms total)
T0020 001:463 JLINK_WriteReg(R2, 0x00000002)  returns 0x00 (0000ms, 1185ms total)
T0020 001:463 JLINK_WriteReg(R3, 0x00000000)  returns 0x00 (0001ms, 1186ms total)
T0020 001:464 JLINK_WriteReg(R4, 0x00000000)  returns 0x00 (0000ms, 1186ms total)
T0020 001:464 JLINK_WriteReg(R5, 0x00000000)  returns 0x00 (0000ms, 1186ms total)
T0020 001:464 JLINK_WriteReg(R6, 0x00000000)  returns 0x00 (0000ms, 1186ms total)
T0020 001:464 JLINK_WriteReg(R7, 0x00000000)  returns 0x00 (0000ms, 1186ms total)
T0020 001:464 JLINK_WriteReg(R8, 0x00000000)  returns 0x00 (0000ms, 1186ms total)
T0020 001:464 JLINK_WriteReg(R9, 0x20000220)  returns 0x00 (0000ms, 1186ms total)
T0020 001:464 JLINK_WriteReg(R10, 0x00000000)  returns 0x00 (0000ms, 1186ms total)
T0020 001:464 JLINK_WriteReg(R11, 0x00000000)  returns 0x00 (0000ms, 1186ms total)
T0020 001:464 JLINK_WriteReg(R12, 0x00000000)  returns 0x00 (0000ms, 1186ms total)
T0020 001:464 JLINK_WriteReg(R13 (SP), 0x20001000)  returns 0x00 (0000ms, 1186ms total)
T0020 001:464 JLINK_WriteReg(R14, 0x20000001)  returns 0x00 (0000ms, 1186ms total)
T0020 001:464 JLINK_WriteReg(R15 (PC), 0x20000038)  returns 0x00 (0000ms, 1186ms total)
T0020 001:464 JLINK_WriteReg(XPSR, 0x01000000)  returns 0x00 (0000ms, 1186ms total)
T0020 001:464 JLINK_WriteReg(MSP, 0x20001000)  returns 0x00 (0000ms, 1186ms total)
T0020 001:464 JLINK_WriteReg(PSP, 0x20001000)  returns 0x00 (0000ms, 1186ms total)
T0020 001:464 JLINK_WriteReg(CFBP, 0x00000000)  returns 0x00 (0000ms, 1186ms total)
T0020 001:464 JLINK_SetBPEx(Addr = 0x20000000, Type = 0xFFFFFFF2) -- CPU_ReadMem(2 bytes @ 0x20000000)  returns 0x00000010 (0002ms, 1188ms total)
T0020 001:466 JLINK_Go() -- CPU_WriteMem(2 bytes @ 0x20000000) -- CPU_ReadMem(4 bytes @ 0xE0001000) -- CPU_WriteMem(4 bytes @ 0xE0001000) (0008ms, 1196ms total)
T0020 001:474 JLINK_IsHalted() -- CPU_ReadMem(2 bytes @ 0x20000000)  returns TRUE (0007ms, 1203ms total)
T0020 001:481 JLINK_ReadReg(R15 (PC))  returns 0x20000000 (0000ms, 1196ms total)
T0020 001:481 JLINK_ClrBPEx(BPHandle = 0x00000010)  returns 0x00 (0000ms, 1196ms total)
T0020 001:481 JLINK_ReadReg(R0)  returns 0x00000000 (0000ms, 1196ms total)
T0020 001:482 JLINK_WriteMem(0x20000224, 0x01DC Bytes, ...) - Data: D0 16 00 20 7D 01 00 00 99 01 00 00 61 01 00 00 ... -- CPU_WriteMem(476 bytes @ 0x20000224)  returns 0x1DC (0007ms, 1203ms total)
T0020 001:489 JLINK_WriteMem(0x20000400, 0x0024 Bytes, ...) - Data: 0F B4 05 49 10 B5 03 AA 02 98 00 F0 F9 F9 10 BC ... -- CPU_WriteMem(36 bytes @ 0x20000400)  returns 0x24 (0002ms, 1205ms total)
T0020 001:491 JLINK_WriteReg(R0, 0x00000000)  returns 0x00 (0000ms, 1205ms total)
T0020 001:491 JLINK_WriteReg(R1, 0x00000200)  returns 0x00 (0000ms, 1205ms total)
T0020 001:491 JLINK_WriteReg(R2, 0x20000224)  returns 0x00 (0000ms, 1205ms total)
T0020 001:491 JLINK_WriteReg(R3, 0x00000000)  returns 0x00 (0000ms, 1205ms total)
T0020 001:491 JLINK_WriteReg(R4, 0x00000000)  returns 0x00 (0000ms, 1205ms total)
T0020 001:491 JLINK_WriteReg(R5, 0x00000000)  returns 0x00 (0000ms, 1205ms total)
T0020 001:491 JLINK_WriteReg(R6, 0x00000000)  returns 0x00 (0000ms, 1205ms total)
T0020 001:491 JLINK_WriteReg(R7, 0x00000000)  returns 0x00 (0000ms, 1205ms total)
T0020 001:491 JLINK_WriteReg(R8, 0x00000000)  returns 0x00 (0000ms, 1205ms total)
T0020 001:491 JLINK_WriteReg(R9, 0x20000220)  returns 0x00 (0000ms, 1205ms total)
T0020 001:491 JLINK_WriteReg(R10, 0x00000000)  returns 0x00 (0000ms, 1205ms total)
T0020 001:491 JLINK_WriteReg(R11, 0x00000000)  returns 0x00 (0000ms, 1205ms total)
T0020 001:491 JLINK_WriteReg(R12, 0x00000000)  returns 0x00 (0000ms, 1205ms total)
T0020 001:491 JLINK_WriteReg(R13 (SP), 0x20001000)  returns 0x00 (0000ms, 1205ms total)
T0020 001:491 JLINK_WriteReg(R14, 0x20000001)  returns 0x00 (0000ms, 1205ms total)
T0020 001:491 JLINK_WriteReg(R15 (PC), 0x20000130)  returns 0x00 (0000ms, 1205ms total)
T0020 001:491 JLINK_WriteReg(XPSR, 0x01000000)  returns 0x00 (0001ms, 1206ms total)
T0020 001:492 JLINK_WriteReg(MSP, 0x20001000)  returns 0x00 (0000ms, 1206ms total)
T0020 001:492 JLINK_WriteReg(PSP, 0x20001000)  returns 0x00 (0000ms, 1206ms total)
T0020 001:492 JLINK_WriteReg(CFBP, 0x00000000)  returns 0x00 (0000ms, 1206ms total)
T0020 001:492 JLINK_SetBPEx(Addr = 0x20000000, Type = 0xFFFFFFF2)  returns 0x00000011 (0000ms, 1206ms total)
T0020 001:492 JLINK_Go() -- CPU_ReadMem(4 bytes @ 0xE0001000) -- CPU_WriteMem(4 bytes @ 0xE0001000) (0008ms, 1214ms total)
T0020 001:500 JLINK_IsHalted()  returns FALSE (0001ms, 1215ms total)
T0020 001:644 JLINK_IsHalted() -- CPU_ReadMem(2 bytes @ 0x20000000)  returns TRUE (0005ms, 1219ms total)
T0020 001:649 JLINK_ReadReg(R15 (PC))  returns 0x20000000 (0000ms, 1214ms total)
T0020 001:649 JLINK_ClrBPEx(BPHandle = 0x00000011)  returns 0x00 (0000ms, 1214ms total)
T0020 001:649 JLINK_ReadReg(R0)  returns 0x00000000 (0000ms, 1214ms total)
T0020 001:650 JLINK_WriteMem(0x20000224, 0x01DC Bytes, ...) - Data: 00 99 14 A6 11 D0 C0 46 C0 46 00 28 02 DA 40 42 ... -- CPU_WriteMem(476 bytes @ 0x20000224)  returns 0x1DC (0006ms, 1220ms total)
T0020 001:656 JLINK_WriteMem(0x20000400, 0x0024 Bytes, ...) - Data: 4E E0 03 46 0B 43 3C D4 00 22 43 08 8B 42 31 D3 ... -- CPU_WriteMem(36 bytes @ 0x20000400)  returns 0x24 (0001ms, 1221ms total)
T0020 001:657 JLINK_WriteReg(R0, 0x00000200)  returns 0x00 (0000ms, 1221ms total)
T0020 001:657 JLINK_WriteReg(R1, 0x00000200)  returns 0x00 (0000ms, 1221ms total)
T0020 001:657 JLINK_WriteReg(R2, 0x20000224)  returns 0x00 (0000ms, 1221ms total)
T0020 001:658 JLINK_WriteReg(R3, 0x00000000)  returns 0x00 (0000ms, 1221ms total)
T0020 001:658 JLINK_WriteReg(R4, 0x00000000)  returns 0x00 (0000ms, 1221ms total)
T0020 001:658 JLINK_WriteReg(R5, 0x00000000)  returns 0x00 (0000ms, 1221ms total)
T0020 001:658 JLINK_WriteReg(R6, 0x00000000)  returns 0x00 (0000ms, 1221ms total)
T0020 001:658 JLINK_WriteReg(R7, 0x00000000)  returns 0x00 (0000ms, 1221ms total)
T0020 001:658 JLINK_WriteReg(R8, 0x00000000)  returns 0x00 (0000ms, 1221ms total)
T0020 001:658 JLINK_WriteReg(R9, 0x20000220)  returns 0x00 (0000ms, 1221ms total)
T0020 001:658 JLINK_WriteReg(R10, 0x00000000)  returns 0x00 (0000ms, 1221ms total)
T0020 001:658 JLINK_WriteReg(R11, 0x00000000)  returns 0x00 (0000ms, 1221ms total)
T0020 001:658 JLINK_WriteReg(R12, 0x00000000)  returns 0x00 (0000ms, 1221ms total)
T0020 001:658 JLINK_WriteReg(R13 (SP), 0x20001000)  returns 0x00 (0000ms, 1221ms total)
T0020 001:658 JLINK_WriteReg(R14, 0x20000001)  returns 0x00 (0000ms, 1221ms total)
T0020 001:658 JLINK_WriteReg(R15 (PC), 0x20000130)  returns 0x00 (0000ms, 1221ms total)
T0020 001:658 JLINK_WriteReg(XPSR, 0x01000000)  returns 0x00 (0000ms, 1221ms total)
T0020 001:658 JLINK_WriteReg(MSP, 0x20001000)  returns 0x00 (0000ms, 1221ms total)
T0020 001:658 JLINK_WriteReg(PSP, 0x20001000)  returns 0x00 (0000ms, 1221ms total)
T0020 001:658 JLINK_WriteReg(CFBP, 0x00000000)  returns 0x00 (0000ms, 1221ms total)
T0020 001:658 JLINK_SetBPEx(Addr = 0x20000000, Type = 0xFFFFFFF2)  returns 0x00000012 (0000ms, 1221ms total)
T0020 001:658 JLINK_Go() -- CPU_ReadMem(4 bytes @ 0xE0001000) -- CPU_WriteMem(4 bytes @ 0xE0001000) (0007ms, 1228ms total)
T0020 001:665 JLINK_IsHalted()  returns FALSE (0001ms, 1229ms total)
T0020 001:676 JLINK_IsHalted() -- CPU_ReadMem(2 bytes @ 0x20000000)  returns TRUE (0005ms, 1233ms total)
T0020 001:681 JLINK_ReadReg(R15 (PC))  returns 0x20000000 (0000ms, 1228ms total)
T0020 001:681 JLINK_ClrBPEx(BPHandle = 0x00000012)  returns 0x00 (0000ms, 1228ms total)
T0020 001:681 JLINK_ReadReg(R0)  returns 0x00000000 (0000ms, 1228ms total)
T0020 001:682 JLINK_WriteMem(0x20000224, 0x01DC Bytes, ...) - Data: 01 D3 CB 01 C0 1A 52 41 83 09 8B 42 01 D3 8B 01 ... -- CPU_WriteMem(476 bytes @ 0x20000224)  returns 0x1DC (0006ms, 1234ms total)
T0020 001:688 JLINK_WriteMem(0x20000400, 0x0024 Bytes, ...) - Data: 08 4B 70 B5 0D 46 7B 44 00 F0 27 F8 04 46 28 46 ... -- CPU_WriteMem(36 bytes @ 0x20000400)  returns 0x24 (0001ms, 1235ms total)
T0020 001:689 JLINK_WriteReg(R0, 0x00000400)  returns 0x00 (0000ms, 1235ms total)
